
T2E9C 000:043 SEGGER J-Link V6.00e Log File (0001ms, 0028ms total)
T2E9C 000:043 DLL Compiled: Aug  4 2016 09:37:38 (0001ms, 0028ms total)
T2E9C 000:043 Logging started @ 2018-02-02 10:50 (0001ms, 0028ms total)
T2E9C 000:044 JLINK_SetWarnOutHandler(...) (0000ms, 0028ms total)
T2E9C 000:044 JLINK_OpenEx(...)
Firmware: J-Link ARM V8 compiled Jan 31 2018 18:34:52
Hardware: V8.00
S/N: 20080643
Feature(s): RDI,FlashDL,FlashBP,JFlash,GDBFull  returns O.K. (0020ms, 0048ms total)
T2E9C 000:064 JLINK_SetErrorOutHandler(...) (0000ms, 0048ms total)
T2E9C 000:064 JLINK_ExecCommand("ProjectFile = "J:\µçÈü\CUBETEST\gimbalnuaa_v1\MDK-ARM\JLinkSettings.ini"", ...).   returns 0x00 (0105ms, 0153ms total)
T2E9C 000:169 JLINK_ExecCommand("Device = STM32F407VETx", ...). Device "STM32F407VE" selected.  returns 0x00 (0001ms, 0154ms total)
T2E9C 000:171 JLINK_ExecCommand("DisableConnectionTimeout", ...).   returns 0x01 (0000ms, 0154ms total)
T2E9C 000:171 JLINK_GetHardwareVersion()  returns 0x13880 (0000ms, 0154ms total)
T2E9C 000:171 JLINK_GetDLLVersion()  returns 60005 (0000ms, 0154ms total)
T2E9C 000:171 JLINK_GetFirmwareString(...) (0000ms, 0154ms total)
T2E9C 000:171 JLINK_GetDLLVersion()  returns 60005 (0000ms, 0154ms total)
T2E9C 000:171 JLINK_GetCompileDateTime() (0000ms, 0154ms total)
T2E9C 000:171 JLINK_GetFirmwareString(...) (0000ms, 0154ms total)
T2E9C 000:171 JLINK_GetHardwareVersion()  returns 0x13880 (0000ms, 0154ms total)
T2E9C 000:171 JLINK_TIF_Select(JLINKARM_TIF_JTAG)  returns 0x00 (0008ms, 0162ms total)
T2E9C 000:179 JLINK_SetSpeed(5000) (0001ms, 0163ms total)
T2E9C 000:180 JLINK_GetIdData(...) >0x2F8 JTAG>TotalIRLen = 9, IRPrint = 0x0011 >0x30 JTAG> >0x410 JTAG> >0x40 JTAG> >0x40 JTAG> >0x40 JTAG> >0x30 JTAG> >0x40 JTAG> >0x40 JTAG> >0x40 JTAG> >0x40 JTAG> >0x40 JTAG> >0x40 JTAG> >0x40 JTAG> >0x40 JTAG> >0x40 JTAG> >0x40 JTAG> >0x40 JTAG> >0x40 JTAG> >0x40 JTAG> >0x40 JTAG> >0x40 JTAG> >0x40 JTAG> >0x40 JTAG> >0x40 JTAG> >0x40 JTAG> >0x40 JTAG> >0x2F8 JTAG>TotalIRLen = 9, IRPrint = 0x0011 >0x30 JTAG> >0x410 JTAG> >0x70 JTAG> >0x50 JTAG> >0x40 JTAG>
 >0x50 JTAG>AP-IDR: 0x24770011, Type: AHB-AP >0x80 JTAG> >0x40 JTAG> >0x30 JTAG> >0x40 JTAG> >0x40 JTAG> >0x30 JTAG> >0x40 JTAG> >0x50 JTAG>Found Cortex-M4 r0p1, Little endian. -- CPU_ReadMem(4 bytes @ 0xE000EDF0) -- CPU_ReadMem(4 bytes @ 0xE0002000)FPUnit: 6 code (BP) slots and 2 literal slots -- CPU_ReadMem(4 bytes @ 0xE000EDFC) -- CPU_ReadMem(4 bytes @ 0xE0001000) -- CPU_WriteMem(4 bytes @ 0xE0001000) -- CPU_ReadMem(4 bytes @ 0xE000ED88) -- CPU_WriteMem(4 bytes @ 0xE000ED88)
 -- CPU_ReadMem(4 bytes @ 0xE000ED88) -- CPU_WriteMem(4 bytes @ 0xE000ED88)CoreSight components:ROMTbl 0 @ E00FF000 -- CPU_ReadMem(16 bytes @ 0xE00FF000) -- CPU_ReadMem(16 bytes @ 0xE000EFF0) -- CPU_ReadMem(16 bytes @ 0xE000EFE0)ROMTbl 0 [0]: FFF0F000, CID: B105E00D, PID: 000BB00C SCS -- CPU_ReadMem(16 bytes @ 0xE0001FF0) -- CPU_ReadMem(16 bytes @ 0xE0001FE0)ROMTbl 0 [1]: FFF02000, CID: B105E00D, PID: 003BB002 DWT -- CPU_ReadMem(16 bytes @ 0xE0002FF0) -- CPU_ReadMem(16 bytes @ 0xE0002FE0)
ROMTbl 0 [2]: FFF03000, CID: B105E00D, PID: 002BB003 FPB -- CPU_ReadMem(16 bytes @ 0xE0000FF0) -- CPU_ReadMem(16 bytes @ 0xE0000FE0)ROMTbl 0 [3]: FFF01000, CID: B105E00D, PID: 003BB001 ITM -- CPU_ReadMem(16 bytes @ 0xE00FF010) -- CPU_ReadMem(16 bytes @ 0xE0040FF0) -- CPU_ReadMem(16 bytes @ 0xE0040FE0)ROMTbl 0 [4]: FFF41000, CID: B105900D, PID: 000BB9A1 TPIU -- CPU_ReadMem(16 bytes @ 0xE0041FF0) -- CPU_ReadMem(16 bytes @ 0xE0041FE0)ROMTbl 0 [5]: FFF42000, CID: B105900D, PID: 000BB925 ETM ScanLen=9
 NumDevices=2 aId[0]=0x4BA00477 aIrRead[0]=0 aScanLen[0]=0 aScanRead[0]=0 (0102ms, 0265ms total)
T2E9C 000:282 JLINK_JTAG_GetDeviceID(DeviceIndex = 0)  returns 0x4BA00477 (0000ms, 0265ms total)
T2E9C 000:282 JLINK_JTAG_GetDeviceInfo(DeviceIndex = 0)  returns 0x00 (0000ms, 0265ms total)
T2E9C 000:282 JLINK_JTAG_GetDeviceID(DeviceIndex = 1)  returns 0x6413041 (0000ms, 0265ms total)
T2E9C 000:282 JLINK_JTAG_GetDeviceInfo(DeviceIndex = 1)  returns 0x00 (0000ms, 0265ms total)
T2E9C 000:282 JLINK_GetDLLVersion()  returns 60005 (0000ms, 0265ms total)
T2E9C 000:282 JLINK_CORE_GetFound()  returns 0xE0000FF (0000ms, 0265ms total)
T2E9C 000:282 JLINK_GetDebugInfo(0x100) -- Value=0xE00FF003  returns 0x00 (0000ms, 0265ms total)
T2E9C 000:282 JLINK_GetDebugInfo(0x100) -- Value=0xE00FF003  returns 0x00 (0000ms, 0265ms total)
T2E9C 000:282 JLINK_GetDebugInfo(0x101) -- Value=0xE0041000  returns 0x00 (0000ms, 0265ms total)
T2E9C 000:282 JLINK_GetDebugInfo(0x102) -- Value=0x00000000  returns 0x00 (0001ms, 0266ms total)
T2E9C 000:283 JLINK_GetDebugInfo(0x103) -- Value=0xE0040000  returns 0x00 (0000ms, 0266ms total)
T2E9C 000:283 JLINK_GetDebugInfo(0x104) -- Value=0xE0000000  returns 0x00 (0000ms, 0266ms total)
T2E9C 000:283 JLINK_GetDebugInfo(0x105) -- Value=0xE0001000  returns 0x00 (0000ms, 0266ms total)
T2E9C 000:283 JLINK_GetDebugInfo(0x106) -- Value=0xE0002000  returns 0x00 (0000ms, 0266ms total)
T2E9C 000:283 JLINK_GetDebugInfo(0x107) -- Value=0xE000E000  returns 0x00 (0000ms, 0266ms total)
T2E9C 000:283 JLINK_GetDebugInfo(0x10C) -- Value=0xE000EDF0  returns 0x00 (0000ms, 0266ms total)
T2E9C 000:283 JLINK_ReadMemU32(0xE000EF40, 0x0001 Items, ...) -- CPU is running -- CPU_ReadMem(4 bytes @ 0xE000EF40) - Data: 21 00 11 10  returns 0x01 (0001ms, 0267ms total)
T2E9C 000:284 JLINK_ReadMemU32(0xE000EF44, 0x0001 Items, ...) -- CPU is running -- CPU_ReadMem(4 bytes @ 0xE000EF44) - Data: 11 00 00 11  returns 0x01 (0001ms, 0268ms total)
T2E9C 000:286 JLINK_ReadMemU32(0xE000ED00, 0x0001 Items, ...) -- CPU is running -- CPU_ReadMem(4 bytes @ 0xE000ED00) - Data: 41 C2 0F 41  returns 0x01 (0001ms, 0270ms total)
T2E9C 000:287 JLINK_SetResetType(JLINKARM_RESET_TYPE_NORMAL)  returns JLINKARM_RESET_TYPE_NORMAL (0000ms, 0270ms total)
T2E9C 000:287 JLINK_Reset() -- CPU is running -- CPU_WriteMem(4 bytes @ 0xE000EDF0) -- CPU is running -- CPU_WriteMem(4 bytes @ 0xE000EDFC) -- CPU is running -- CPU_WriteMem(4 bytes @ 0xE000ED0C) -- CPU is running -- CPU_ReadMem(4 bytes @ 0xE000EDF0) -- CPU is running -- CPU_ReadMem(4 bytes @ 0xE000EDF0) -- CPU is running -- CPU_WriteMem(4 bytes @ 0xE000EDF0) -- CPU is running -- CPU_WriteMem(4 bytes @ 0xE000EDFC) -- CPU is running -- CPU_ReadMem(4 bytes @ 0xE000EDF0) >0x80 JTAG> >0x40 JTAG> >0x30 JTAG>
 >0x40 JTAG> >0x50 JTAG> >0x40 JTAG> -- CPU_WriteMem(4 bytes @ 0xE000EDFC) -- CPU_WriteMem(4 bytes @ 0xE0001028) -- CPU_WriteMem(4 bytes @ 0xE0001038) -- CPU_WriteMem(4 bytes @ 0xE0001048) -- CPU_WriteMem(4 bytes @ 0xE0001058) -- CPU_WriteMem(4 bytes @ 0xE0002000) -- CPU_ReadMem(4 bytes @ 0xE000EDFC) -- CPU_ReadMem(4 bytes @ 0xE0001000) (0049ms, 0319ms total)
T2E9C 000:336 JLINK_ReadReg(R15 (PC))  returns 0x0800019C (0000ms, 0319ms total)
T2E9C 000:336 JLINK_ReadReg(XPSR)  returns 0x01000000 (0000ms, 0319ms total)
T2E9C 000:336 JLINK_Halt()  returns 0x00 (0000ms, 0319ms total)
T2E9C 000:336 JLINK_IsHalted()  returns TRUE (0000ms, 0319ms total)
T2E9C 000:336 JLINK_ReadMemU32(0xE000EDF0, 0x0001 Items, ...) -- CPU_ReadMem(4 bytes @ 0xE000EDF0) - Data: 03 00 03 00  returns 0x01 (0001ms, 0320ms total)
T2E9C 000:337 JLINK_WriteU32(0xE000EDF0, 0xA05F0003) -- CPU_WriteMem(4 bytes @ 0xE000EDF0)  returns 0x00 (0001ms, 0321ms total)
T2E9C 000:338 JLINK_WriteU32(0xE000EDFC, 0x01000000) -- CPU_WriteMem(4 bytes @ 0xE000EDFC)  returns 0x00 (0002ms, 0323ms total)
T2E9C 000:340 JLINK_GetHWStatus(...)  returns 0x00 (0001ms, 0324ms total)
T2E9C 000:341 JLINK_GetNumBPUnits(Type = 0xFFFFFF00)  returns 0x06 (0000ms, 0324ms total)
T2E9C 000:341 JLINK_GetNumBPUnits(Type = 0xF0)  returns 0x2000 (0000ms, 0324ms total)
T2E9C 000:341 JLINK_GetNumWPUnits()  returns 0x04 (0000ms, 0324ms total)
T2E9C 000:341 JLINK_GetSpeed()  returns 0x12C0 (0000ms, 0324ms total)
T2E9C 000:341 JLINK_ReadMemU32(0xE000E004, 0x0001 Items, ...) -- CPU_ReadMem(4 bytes @ 0xE000E004) - Data: 02 00 00 00  returns 0x01 (0001ms, 0325ms total)
T2E9C 000:343 JLINK_ReadMemU32(0xE000E004, 0x0001 Items, ...) -- CPU_ReadMem(4 bytes @ 0xE000E004) - Data: 02 00 00 00  returns 0x01 (0001ms, 0326ms total)
T2E9C 000:344 JLINK_WriteMem(0xE0001000, 0x001C Bytes, ...) - Data: 01 00 00 00 00 00 00 00 00 00 00 00 00 00 00 00 ... -- CPU_WriteMem(28 bytes @ 0xE0001000)  returns 0x1C (0002ms, 0328ms total)
T2E9C 000:346 JLINK_ReadMem (0xE0001000, 0x001C Bytes, ...) -- CPU_ReadMem(28 bytes @ 0xE0001000) - Data: 01 00 00 40 00 00 00 00 00 00 00 00 00 00 00 00 ...  returns 0x00 (0002ms, 0330ms total)
T2E9C 000:348 JLINK_ReadReg(R15 (PC))  returns 0x0800019C (0000ms, 0330ms total)
T2E9C 000:348 JLINK_ReadReg(XPSR)  returns 0x01000000 (0000ms, 0330ms total)
T2E9C 000:454 JLINK_SetResetType(JLINKARM_RESET_TYPE_NORMAL)  returns JLINKARM_RESET_TYPE_NORMAL (0000ms, 0330ms total)
T2E9C 000:454 JLINK_Reset() -- CPU_WriteMem(4 bytes @ 0xE000EDF0) -- CPU_WriteMem(4 bytes @ 0xE000EDFC) -- CPU_WriteMem(4 bytes @ 0xE000ED0C) -- CPU_ReadMem(4 bytes @ 0xE000EDF0) -- CPU_ReadMem(4 bytes @ 0xE000EDF0) -- CPU_WriteMem(4 bytes @ 0xE000EDF0) -- CPU_WriteMem(4 bytes @ 0xE000EDFC) -- CPU is running -- CPU_ReadMem(4 bytes @ 0xE000EDF0) >0x80 JTAG> >0x40 JTAG> >0x30 JTAG> >0x40 JTAG> >0x50 JTAG> >0x40 JTAG> -- CPU_WriteMem(4 bytes @ 0xE000EDFC) -- CPU_WriteMem(4 bytes @ 0xE0001028)
 -- CPU_WriteMem(4 bytes @ 0xE0001038) -- CPU_WriteMem(4 bytes @ 0xE0001048) -- CPU_WriteMem(4 bytes @ 0xE0001058) -- CPU_WriteMem(4 bytes @ 0xE0002000) -- CPU_ReadMem(4 bytes @ 0xE000EDFC) -- CPU_ReadMem(4 bytes @ 0xE0001000) (0049ms, 0379ms total)
T2E9C 000:503 JLINK_ReadReg(R15 (PC))  returns 0x0800019C (0000ms, 0379ms total)
T2E9C 000:503 JLINK_ReadReg(XPSR)  returns 0x01000000 (0001ms, 0380ms total)
T2E9C 000:504 JLINK_ReadMem (0x0800019C, 0x003C Bytes, ...) -- CPU_ReadMem(128 bytes @ 0x08000180) -- Updating C cache (128 bytes @ 0x08000180) -- Read from C cache (60 bytes @ 0x0800019C) - Data: 06 48 80 47 06 48 00 47 FE E7 FE E7 FE E7 FE E7 ...  returns 0x00 (0002ms, 0382ms total)
T0450 002:000 JLINK_Step() -- Read from C cache (2 bytes @ 0x0800019C) -- CPU_ReadMem(4 bytes @ 0xE000ED18) -- CPU_WriteMem(4 bytes @ 0xE000ED18) -- CPU_ReadMem(4 bytes @ 0xE000ED18) -- CPU_WriteMem(4 bytes @ 0xE000ED18) -- Read from C cache (4 bytes @ 0x080001B8) -- Simulated  returns 0x00 (0006ms, 0388ms total)
T0450 002:006 JLINK_ReadReg(R15 (PC))  returns 0x0800019E (0000ms, 0388ms total)
T0450 002:006 JLINK_ReadReg(XPSR)  returns 0x01000000 (0000ms, 0388ms total)
T0450 002:006 JLINK_SetBPEx(Addr = 0x08001C24, Type = 0xFFFFFFF2)  returns 0x00000001 (0000ms, 0388ms total)
T0450 002:006 JLINK_SetBPEx(Addr = 0x0800019C, Type = 0xFFFFFFF2)  returns 0x00000002 (0000ms, 0388ms total)
T0450 002:006 JLINK_SetBPEx(Addr = 0x08001360, Type = 0xFFFFFFF2)  returns 0x00000003 (0000ms, 0388ms total)
T0450 002:006 JLINK_SetBPEx(Addr = 0x08001364, Type = 0xFFFFFFF2)  returns 0x00000004 (0001ms, 0389ms total)
T0450 002:007 JLINK_SetBPEx(Addr = 0x08001368, Type = 0xFFFFFFF2)  returns 0x00000005 (0000ms, 0389ms total)
T0450 002:007 JLINK_SetBPEx(Addr = 0x0800136C, Type = 0xFFFFFFF2)  returns 0x00000006 (0000ms, 0389ms total)
T0450 002:007 JLINK_SetBPEx(Addr = 0x08001370, Type = 0xFFFFFFF2) -- BP[0] @ 0x08001C24 converted into FlashBP  returns 0x00000007 (0000ms, 0389ms total)
T0450 002:007 JLINK_SetBPEx(Addr = 0x08001374, Type = 0xFFFFFFF2) -- BP[1] @ 0x0800019C converted into FlashBP  returns 0x00000008 (0000ms, 0389ms total)
T0450 002:007 JLINK_SetBPEx(Addr = 0x080012DE, Type = 0xFFFFFFF2) -- BP[2] @ 0x08001360 converted into FlashBP  returns 0x00000009 (0000ms, 0389ms total)
T0450 002:007 JLINK_SetBPEx(Addr = 0x080012CC, Type = 0xFFFFFFF2) -- BP[3] @ 0x08001364 converted into FlashBP  returns 0x0000000A (0000ms, 0389ms total)
T0450 002:007 JLINK_SetBPEx(Addr = 0x080012E6, Type = 0xFFFFFFF2) -- BP[4] @ 0x08001368 converted into FlashBP  returns 0x0000000B (0000ms, 0389ms total)
T0450 002:007 JLINK_SetBPEx(Addr = 0x080012EA, Type = 0xFFFFFFF2) -- BP[5] @ 0x0800136C converted into FlashBP  returns 0x0000000C (0000ms, 0389ms total)
T0450 002:007 JLINK_Go() -- Read from C cache (2 bytes @ 0x0800019E) -- Simulated -- CPU_ReadMem(64 bytes @ 0x08001600) -- Updating C cache (64 bytes @ 0x08001600) -- Read from C cache (2 bytes @ 0x08001618) -- CPU_ReadMem(64 bytes @ 0x08001640) -- Updating C cache (64 bytes @ 0x08001640) -- Read from C cache (4 bytes @ 0x0800165C) -- Simulated -- Read from C cache (2 bytes @ 0x0800161A) -- Not simulated -- Start of preparing flash programming -- Calculating RAM usage -- RAM usage = 10052 Bytes
 -- Preserving CPU registers -- Preparing memory -- Determining CPU clock frequency -- Preparing target -- Preserving target RAM temporarily used for programming -- Downloading RAMCode -- Checking target RAM -- Preparing RAMCode -- End of preparing flash programming -- CPU is running -- CPU_ReadMem(16384 bytes @ 0x08000000) -- Updating flash cache (16384 bytes @ 0x08000000) -- Programming range 0x08000000 - 0x08003FFF (001 Sector, 16 KB) -- Start of restoring -- Restoring RAMCode
 -- Restoring target memory -- Restore target -- Restore memory -- Restoring CPU registers -- End of restoring -- CPU_WriteMem(4 bytes @ 0xE0002000) -- CPU_ReadMem(4 bytes @ 0xE0002008) -- CPU_WriteMem(4 bytes @ 0xE000EDF4) -- CPU_ReadMem(4 bytes @ 0xE000EDF8) -- CPU_WriteMem(4 bytes @ 0xE0002008) -- CPU_WriteMem(4 bytes @ 0xE000EDF8) -- CPU_WriteMem(4 bytes @ 0xE000EDF4) -- CPU_WriteMem(4 bytes @ 0xE000EDF0) -- CPU_WriteMem(4 bytes @ 0xE000EDF0) -- CPU_ReadMem(4 bytes @ 0xE000EDF0)
 -- CPU_WriteMem(4 bytes @ 0xE000EDF0) -- CPU_WriteMem(4 bytes @ 0xE0002008) -- CPU_WriteMem(4 bytes @ 0xE000EDF8) -- CPU_WriteMem(4 bytes @ 0xE000EDF4) -- CPU_ReadMem(4 bytes @ 0xE0001000) -- CPU_WriteMem(4 bytes @ 0xE0002008) -- CPU_WriteMem(4 bytes @ 0xE000200C) -- CPU_WriteMem(4 bytes @ 0xE0002010) -- CPU_WriteMem(4 bytes @ 0xE0002014) -- CPU_WriteMem(4 bytes @ 0xE0002018) -- CPU_WriteMem(4 bytes @ 0xE000201C) (0601ms, 0990ms total)
T0450 002:709 JLINK_IsHalted()  returns TRUE (0004ms, 0994ms total)
T0450 002:713 JLINK_Halt()  returns 0x00 (0000ms, 0990ms total)
T0450 002:713 JLINK_IsHalted()  returns TRUE (0000ms, 0990ms total)
T0450 002:713 JLINK_IsHalted()  returns TRUE (0000ms, 0990ms total)
T0450 002:714 JLINK_IsHalted()  returns TRUE (0000ms, 0990ms total)
T0450 002:714 JLINK_ReadReg(R15 (PC))  returns 0x08001C24 (0000ms, 0990ms total)
T0450 002:714 JLINK_ReadReg(XPSR)  returns 0x61000000 (0000ms, 0990ms total)
T0450 002:714 JLINK_ClrBPEx(BPHandle = 0x00000001)  returns 0x00 (0000ms, 0990ms total)
T0450 002:714 JLINK_ClrBPEx(BPHandle = 0x00000002)  returns 0x00 (0000ms, 0990ms total)
T0450 002:714 JLINK_ClrBPEx(BPHandle = 0x00000003)  returns 0x00 (0000ms, 0990ms total)
T0450 002:714 JLINK_ClrBPEx(BPHandle = 0x00000004)  returns 0x00 (0000ms, 0990ms total)
T0450 002:714 JLINK_ClrBPEx(BPHandle = 0x00000005)  returns 0x00 (0000ms, 0990ms total)
T0450 002:714 JLINK_ClrBPEx(BPHandle = 0x00000006)  returns 0x00 (0000ms, 0990ms total)
T0450 002:714 JLINK_ClrBPEx(BPHandle = 0x00000007)  returns 0x00 (0000ms, 0990ms total)
T0450 002:714 JLINK_ClrBPEx(BPHandle = 0x00000008)  returns 0x00 (0000ms, 0990ms total)
T0450 002:714 JLINK_ClrBPEx(BPHandle = 0x00000009)  returns 0x00 (0001ms, 0991ms total)
T0450 002:715 JLINK_ClrBPEx(BPHandle = 0x0000000A)  returns 0x00 (0000ms, 0991ms total)
T0450 002:715 JLINK_ClrBPEx(BPHandle = 0x0000000B)  returns 0x00 (0000ms, 0991ms total)
T0450 002:715 JLINK_ClrBPEx(BPHandle = 0x0000000C)  returns 0x00 (0000ms, 0991ms total)
T0450 002:715 JLINK_ReadMemU32(0xE000ED30, 0x0001 Items, ...) -- CPU_ReadMem(4 bytes @ 0xE000ED30) - Data: 03 00 00 00  returns 0x01 (0001ms, 0992ms total)
T0450 002:716 JLINK_ReadMemU32(0xE0001028, 0x0001 Items, ...) -- CPU_ReadMem(4 bytes @ 0xE0001028) - Data: 00 00 00 00  returns 0x01 (0001ms, 0993ms total)
T0450 002:717 JLINK_ReadMemU32(0xE0001038, 0x0001 Items, ...) -- CPU_ReadMem(4 bytes @ 0xE0001038) - Data: 00 02 00 00  returns 0x01 (0002ms, 0995ms total)
T0450 002:719 JLINK_ReadMemU32(0xE0001048, 0x0001 Items, ...) -- CPU_ReadMem(4 bytes @ 0xE0001048) - Data: 00 00 00 00  returns 0x01 (0001ms, 0996ms total)
T0450 002:720 JLINK_ReadMemU32(0xE0001058, 0x0001 Items, ...) -- CPU_ReadMem(4 bytes @ 0xE0001058) - Data: 00 00 00 00  returns 0x01 (0001ms, 0997ms total)
T0450 002:721 JLINK_ReadReg(R0)  returns 0x08001C25 (0000ms, 0997ms total)
T0450 002:721 JLINK_ReadReg(R1)  returns 0x20000560 (0001ms, 0998ms total)
T0450 002:722 JLINK_ReadReg(R2)  returns 0x00000000 (0000ms, 0998ms total)
T0450 002:722 JLINK_ReadReg(R3)  returns 0x08001B91 (0000ms, 0998ms total)
T0450 002:722 JLINK_ReadReg(R4)  returns 0x08001C88 (0000ms, 0998ms total)
T0450 002:722 JLINK_ReadReg(R5)  returns 0x08001C88 (0000ms, 0998ms total)
T0450 002:722 JLINK_ReadReg(R6)  returns 0x00000000 (0000ms, 0998ms total)
T0450 002:722 JLINK_ReadReg(R7)  returns 0x00000000 (0000ms, 0998ms total)
T0450 002:722 JLINK_ReadReg(R8)  returns 0x00000000 (0000ms, 0998ms total)
T0450 002:722 JLINK_ReadReg(R9)  returns 0x00000000 (0000ms, 0998ms total)
T0450 002:722 JLINK_ReadReg(R10)  returns 0x00000000 (0000ms, 0998ms total)
T0450 002:722 JLINK_ReadReg(R11)  returns 0x00000000 (0000ms, 0998ms total)
T0450 002:722 JLINK_ReadReg(R12)  returns 0x00000000 (0000ms, 0998ms total)
T0450 002:722 JLINK_ReadReg(R13 (SP))  returns 0x20000560 (0000ms, 0998ms total)
T0450 002:722 JLINK_ReadReg(R14)  returns 0x0800027D (0000ms, 0998ms total)
T0450 002:722 JLINK_ReadReg(R15 (PC))  returns 0x08001C24 (0000ms, 0998ms total)
T0450 002:722 JLINK_ReadReg(XPSR)  returns 0x61000000 (0000ms, 0998ms total)
T0450 002:722 JLINK_ReadReg(MSP)  returns 0x20000560 (0000ms, 0998ms total)
T0450 002:722 JLINK_ReadReg(PSP)  returns 0x00000000 (0000ms, 0998ms total)
T0450 002:722 JLINK_ReadReg(CFBP)  returns 0x00000000 (0000ms, 0998ms total)
T0450 002:722 JLINK_ReadReg(FPSCR)  returns 0x00000000 (0006ms, 1004ms total)
T0450 002:728 JLINK_ReadReg(FPS0)  returns 0x00000000 (0000ms, 1004ms total)
T0450 002:728 JLINK_ReadReg(FPS1)  returns 0x00000000 (0000ms, 1004ms total)
T0450 002:728 JLINK_ReadReg(FPS2)  returns 0x00000000 (0000ms, 1004ms total)
T0450 002:728 JLINK_ReadReg(FPS3)  returns 0x00000000 (0001ms, 1005ms total)
T0450 002:729 JLINK_ReadReg(FPS4)  returns 0x00000000 (0000ms, 1005ms total)
T0450 002:729 JLINK_ReadReg(FPS5)  returns 0x00000000 (0000ms, 1005ms total)
T0450 002:729 JLINK_ReadReg(FPS6)  returns 0x00000000 (0000ms, 1005ms total)
T0450 002:729 JLINK_ReadReg(FPS7)  returns 0x00000000 (0000ms, 1005ms total)
T0450 002:729 JLINK_ReadReg(FPS8)  returns 0x00000000 (0000ms, 1005ms total)
T0450 002:729 JLINK_ReadReg(FPS9)  returns 0x00000000 (0000ms, 1005ms total)
T0450 002:729 JLINK_ReadReg(FPS10)  returns 0x00000000 (0000ms, 1005ms total)
T0450 002:729 JLINK_ReadReg(FPS11)  returns 0x00000000 (0000ms, 1005ms total)
T0450 002:729 JLINK_ReadReg(FPS12)  returns 0x00000000 (0000ms, 1005ms total)
T0450 002:729 JLINK_ReadReg(FPS13)  returns 0x00000000 (0000ms, 1005ms total)
T0450 002:729 JLINK_ReadReg(FPS14)  returns 0x00000000 (0000ms, 1005ms total)
T0450 002:729 JLINK_ReadReg(FPS15)  returns 0x00000000 (0000ms, 1005ms total)
T0450 002:729 JLINK_ReadReg(FPS16)  returns 0x00000000 (0000ms, 1005ms total)
T0450 002:729 JLINK_ReadReg(FPS17)  returns 0x00000000 (0000ms, 1005ms total)
T0450 002:729 JLINK_ReadReg(FPS18)  returns 0x00000000 (0001ms, 1006ms total)
T0450 002:730 JLINK_ReadReg(FPS19)  returns 0x00000000 (0000ms, 1006ms total)
T0450 002:730 JLINK_ReadReg(FPS20)  returns 0x00000000 (0000ms, 1006ms total)
T0450 002:730 JLINK_ReadReg(FPS21)  returns 0x00000000 (0000ms, 1006ms total)
T0450 002:730 JLINK_ReadReg(FPS22)  returns 0x00000000 (0000ms, 1006ms total)
T0450 002:730 JLINK_ReadReg(FPS23)  returns 0x00000000 (0000ms, 1006ms total)
T0450 002:730 JLINK_ReadReg(FPS24)  returns 0x00000000 (0000ms, 1006ms total)
T0450 002:730 JLINK_ReadReg(FPS25)  returns 0x00000000 (0000ms, 1006ms total)
T0450 002:730 JLINK_ReadReg(FPS26)  returns 0x00000000 (0000ms, 1006ms total)
T0450 002:730 JLINK_ReadReg(FPS27)  returns 0x00000000 (0000ms, 1006ms total)
T0450 002:730 JLINK_ReadReg(FPS28)  returns 0x00000000 (0000ms, 1006ms total)
T0450 002:730 JLINK_ReadReg(FPS29)  returns 0x00000000 (0000ms, 1006ms total)
T0450 002:730 JLINK_ReadReg(FPS30)  returns 0x00000000 (0000ms, 1006ms total)
T0450 002:730 JLINK_ReadReg(FPS31)  returns 0x00000000 (0000ms, 1006ms total)
T2E9C 002:732 JLINK_ReadMemU32(0xE0001004, 0x0001 Items, ...) -- CPU_ReadMem(4 bytes @ 0xE0001004) - Data: 26 17 E7 02  returns 0x01 (0002ms, 1008ms total)
T2E9C 002:736 JLINK_ReadMem (0x08001B24, 0x003C Bytes, ...) -- Read from flash cache (60 bytes @ 0x08001B24) - Data: C1 84 0E D0 17 E0 09 88 02 68 C1 F3 08 01 51 60 ...  returns 0x00 (0000ms, 1008ms total)
T2E9C 002:736 JLINK_ReadMem (0x08001B60, 0x003C Bytes, ...) -- Read from flash cache (60 bytes @ 0x08001B60) - Data: 01 48 FF F7 FB B8 00 00 78 00 00 20 FE E7 FE E7 ...  returns 0x00 (0001ms, 1009ms total)
T2E9C 002:737 JLINK_ReadMem (0x08001B9C, 0x003C Bytes, ...) -- Read from flash cache (60 bytes @ 0x08001B9C) - Data: 70 47 2D E9 F0 41 16 46 0F 46 04 46 00 25 03 E0 ...  returns 0x00 (0000ms, 1009ms total)
T2E9C 002:737 JLINK_ReadMem (0x08001BD8, 0x0028 Bytes, ...) -- Read from flash cache (40 bytes @ 0x08001BD8) - Data: 70 BD 00 00 70 B5 4F F0 E0 24 00 22 65 69 09 49 ...  returns 0x00 (0000ms, 1009ms total)
T2E9C 002:737 JLINK_ReadMem (0x08001C00, 0x0014 Bytes, ...) -- Read from flash cache (20 bytes @ 0x08001C00) - Data: 33 44 1A 44 0B 46 82 42 F1 D3 70 BD 0C 00 00 20 ...  returns 0x00 (0000ms, 1009ms total)
T2E9C 002:737 JLINK_ReadMem (0x08001C14, 0x003C Bytes, ...) -- Read from flash cache (60 bytes @ 0x08001C14) -- Merging zombie BP[0]: 0xF7FE @ 0x08001C24 - Data: 8D F8 00 00 69 46 03 20 AB BE 20 46 38 BD 00 00 ...  returns 0x00 (0000ms, 1009ms total)
T0450 011:189 JLINK_SetBPEx(Addr = 0x0800019C, Type = 0xFFFFFFF2)  returns 0x0000000D (0000ms, 1009ms total)
T0450 011:189 JLINK_SetBPEx(Addr = 0x08001360, Type = 0xFFFFFFF2)  returns 0x0000000E (0000ms, 1009ms total)
T0450 011:189 JLINK_SetBPEx(Addr = 0x08001364, Type = 0xFFFFFFF2)  returns 0x0000000F (0000ms, 1009ms total)
T0450 011:189 JLINK_SetBPEx(Addr = 0x08001368, Type = 0xFFFFFFF2)  returns 0x00000010 (0000ms, 1009ms total)
T0450 011:189 JLINK_SetBPEx(Addr = 0x0800136C, Type = 0xFFFFFFF2)  returns 0x00000011 (0000ms, 1009ms total)
T0450 011:189 JLINK_SetBPEx(Addr = 0x08001370, Type = 0xFFFFFFF2)  returns 0x00000012 (0000ms, 1009ms total)
T0450 011:189 JLINK_SetBPEx(Addr = 0x08001374, Type = 0xFFFFFFF2)  returns 0x00000013 (0000ms, 1009ms total)
T0450 011:189 JLINK_SetBPEx(Addr = 0x080012DE, Type = 0xFFFFFFF2)  returns 0x00000014 (0000ms, 1009ms total)
T0450 011:189 JLINK_SetBPEx(Addr = 0x080012CC, Type = 0xFFFFFFF2)  returns 0x00000015 (0000ms, 1009ms total)
T0450 011:189 JLINK_SetBPEx(Addr = 0x080012E6, Type = 0xFFFFFFF2)  returns 0x00000016 (0000ms, 1009ms total)
T0450 011:189 JLINK_SetBPEx(Addr = 0x080012EA, Type = 0xFFFFFFF2)  returns 0x00000017 (0000ms, 1009ms total)
T0450 011:190 JLINK_SetBPEx(Addr = 0x08001C38, Type = 0xFFFFFFF2) -- BP[6] @ 0x08001370 converted into FlashBP  returns 0x00000018 (0000ms, 1010ms total)
T0450 011:190 JLINK_Go() -- Merging zombie BP[0]: 0xF7FE @ 0x08001C24 -- Merging zombie BP[0]: 0xF7FE @ 0x08001C24 -- Read from flash cache (2 bytes @ 0x08001C26) -- Simulated -- Read from flash cache (2 bytes @ 0x08000578) -- Read from flash cache (4 bytes @ 0x080005A8) -- Simulated -- Read from flash cache (2 bytes @ 0x0800057A) -- CPU_WriteMem(8 bytes @ 0x20000558) -- Simulated -- Read from flash cache (2 bytes @ 0x0800057C) -- Not simulated -- Start of preparing flash programming
 -- Calculating RAM usage -- RAM usage = 10052 Bytes -- Preserving CPU registers -- Preparing memory -- Determining CPU clock frequency -- Preparing target -- Preserving target RAM temporarily used for programming -- Downloading RAMCode -- Not first flash download, checking target RAM skipped -- Preparing RAMCode -- End of preparing flash programming -- Read from flash cache (16384 bytes @ 0x08000000) -- Programming range 0x08000000 - 0x08003FFF (001 Sector, 16 KB) -- Start of restoring
 -- Restoring RAMCode -- Restoring target memory -- Restore target -- Restore memory -- Restoring CPU registers -- End of restoring -- CPU_WriteMem(4 bytes @ 0xE0002000) -- CPU_ReadMem(4 bytes @ 0xE0002008) -- CPU_WriteMem(4 bytes @ 0xE000EDF4) -- CPU_ReadMem(4 bytes @ 0xE000EDF8) -- CPU_WriteMem(4 bytes @ 0xE0002008) -- CPU_WriteMem(4 bytes @ 0xE000EDF8) -- CPU_WriteMem(4 bytes @ 0xE000EDF4) -- CPU_WriteMem(4 bytes @ 0xE000EDF0) -- CPU_WriteMem(4 bytes @ 0xE000EDF0) -- CPU_ReadMem(4 bytes @ 0xE000EDF0)
 -- CPU_WriteMem(4 bytes @ 0xE000EDF0) -- CPU_WriteMem(4 bytes @ 0xE0002008) -- CPU_WriteMem(4 bytes @ 0xE000EDF8) -- CPU_WriteMem(4 bytes @ 0xE000EDF4) -- CPU_ReadMem(4 bytes @ 0xE0001000) -- CPU_WriteMem(4 bytes @ 0xE0002008) -- CPU_WriteMem(4 bytes @ 0xE000200C) -- CPU_WriteMem(4 bytes @ 0xE0002010) -- CPU_WriteMem(4 bytes @ 0xE0002014) -- CPU_WriteMem(4 bytes @ 0xE0002018) -- CPU_WriteMem(4 bytes @ 0xE000201C) (0551ms, 1561ms total)
T0450 011:841 JLINK_IsHalted()  returns TRUE (0005ms, 1566ms total)
T0450 011:846 JLINK_Halt()  returns 0x00 (0000ms, 1561ms total)
T0450 011:846 JLINK_IsHalted()  returns TRUE (0000ms, 1561ms total)
T0450 011:846 JLINK_IsHalted()  returns TRUE (0000ms, 1561ms total)
T0450 011:846 JLINK_IsHalted()  returns TRUE (0000ms, 1561ms total)
T0450 011:846 JLINK_ReadReg(R15 (PC))  returns 0x08001C38 (0000ms, 1561ms total)
T0450 011:846 JLINK_ReadReg(XPSR)  returns 0x61000000 (0000ms, 1561ms total)
T0450 011:846 JLINK_ClrBPEx(BPHandle = 0x0000000D)  returns 0x00 (0000ms, 1561ms total)
T0450 011:847 JLINK_ClrBPEx(BPHandle = 0x0000000E)  returns 0x00 (0000ms, 1562ms total)
T0450 011:847 JLINK_ClrBPEx(BPHandle = 0x0000000F)  returns 0x00 (0000ms, 1562ms total)
T0450 011:847 JLINK_ClrBPEx(BPHandle = 0x00000010)  returns 0x00 (0000ms, 1562ms total)
T0450 011:847 JLINK_ClrBPEx(BPHandle = 0x00000011)  returns 0x00 (0000ms, 1562ms total)
T0450 011:847 JLINK_ClrBPEx(BPHandle = 0x00000012)  returns 0x00 (0000ms, 1562ms total)
T0450 011:847 JLINK_ClrBPEx(BPHandle = 0x00000013)  returns 0x00 (0000ms, 1562ms total)
T0450 011:847 JLINK_ClrBPEx(BPHandle = 0x00000014)  returns 0x00 (0000ms, 1562ms total)
T0450 011:847 JLINK_ClrBPEx(BPHandle = 0x00000015)  returns 0x00 (0000ms, 1562ms total)
T0450 011:847 JLINK_ClrBPEx(BPHandle = 0x00000016)  returns 0x00 (0000ms, 1562ms total)
T0450 011:847 JLINK_ClrBPEx(BPHandle = 0x00000017)  returns 0x00 (0000ms, 1562ms total)
T0450 011:847 JLINK_ClrBPEx(BPHandle = 0x00000018)  returns 0x00 (0000ms, 1562ms total)
T0450 011:847 JLINK_ReadMemU32(0xE000ED30, 0x0001 Items, ...) -- CPU_ReadMem(4 bytes @ 0xE000ED30) - Data: 03 00 00 00  returns 0x01 (0001ms, 1563ms total)
T0450 011:848 JLINK_ReadMemU32(0xE0001028, 0x0001 Items, ...) -- CPU_ReadMem(4 bytes @ 0xE0001028) - Data: 00 00 00 00  returns 0x01 (0001ms, 1564ms total)
T0450 011:849 JLINK_ReadMemU32(0xE0001038, 0x0001 Items, ...) -- CPU_ReadMem(4 bytes @ 0xE0001038) - Data: 00 02 00 00  returns 0x01 (0002ms, 1566ms total)
T0450 011:851 JLINK_ReadMemU32(0xE0001048, 0x0001 Items, ...) -- CPU_ReadMem(4 bytes @ 0xE0001048) - Data: 00 00 00 00  returns 0x01 (0001ms, 1567ms total)
T0450 011:852 JLINK_ReadMemU32(0xE0001058, 0x0001 Items, ...) -- CPU_ReadMem(4 bytes @ 0xE0001058) - Data: 00 00 00 00  returns 0x01 (0002ms, 1569ms total)
T0450 011:854 JLINK_ReadReg(R0)  returns 0x00000000 (0000ms, 1569ms total)
T0450 011:854 JLINK_ReadReg(R1)  returns 0x00000000 (0000ms, 1569ms total)
T0450 011:854 JLINK_ReadReg(R2)  returns 0x00000001 (0000ms, 1569ms total)
T0450 011:854 JLINK_ReadReg(R3)  returns 0x40000000 (0000ms, 1569ms total)
T0450 011:854 JLINK_ReadReg(R4)  returns 0x08001C88 (0000ms, 1569ms total)
T0450 011:854 JLINK_ReadReg(R5)  returns 0x08001C88 (0000ms, 1569ms total)
T0450 011:854 JLINK_ReadReg(R6)  returns 0x00000000 (0000ms, 1569ms total)
T0450 011:854 JLINK_ReadReg(R7)  returns 0x00000000 (0000ms, 1569ms total)
T0450 011:854 JLINK_ReadReg(R8)  returns 0x00000000 (0000ms, 1569ms total)
T0450 011:854 JLINK_ReadReg(R9)  returns 0x00000000 (0000ms, 1569ms total)
T0450 011:854 JLINK_ReadReg(R10)  returns 0x00000000 (0000ms, 1569ms total)
T0450 011:854 JLINK_ReadReg(R11)  returns 0x00000000 (0000ms, 1569ms total)
T0450 011:854 JLINK_ReadReg(R12)  returns 0x40000000 (0000ms, 1569ms total)
T0450 011:854 JLINK_ReadReg(R13 (SP))  returns 0x20000560 (0000ms, 1569ms total)
T0450 011:854 JLINK_ReadReg(R14)  returns 0x080014D5 (0000ms, 1569ms total)
T0450 011:854 JLINK_ReadReg(R15 (PC))  returns 0x08001C38 (0000ms, 1569ms total)
T0450 011:854 JLINK_ReadReg(XPSR)  returns 0x61000000 (0000ms, 1569ms total)
T0450 011:854 JLINK_ReadReg(MSP)  returns 0x20000560 (0001ms, 1570ms total)
T0450 011:855 JLINK_ReadReg(PSP)  returns 0x00000000 (0000ms, 1570ms total)
T0450 011:855 JLINK_ReadReg(CFBP)  returns 0x00000000 (0000ms, 1570ms total)
T0450 011:855 JLINK_ReadReg(FPSCR)  returns 0x00000000 (0006ms, 1576ms total)
T0450 011:861 JLINK_ReadReg(FPS0)  returns 0x00000000 (0000ms, 1576ms total)
T0450 011:861 JLINK_ReadReg(FPS1)  returns 0x00000000 (0000ms, 1576ms total)
T0450 011:861 JLINK_ReadReg(FPS2)  returns 0x00000000 (0000ms, 1576ms total)
T0450 011:861 JLINK_ReadReg(FPS3)  returns 0x00000000 (0000ms, 1576ms total)
T0450 011:861 JLINK_ReadReg(FPS4)  returns 0x00000000 (0000ms, 1576ms total)
T0450 011:861 JLINK_ReadReg(FPS5)  returns 0x00000000 (0000ms, 1576ms total)
T0450 011:861 JLINK_ReadReg(FPS6)  returns 0x00000000 (0000ms, 1576ms total)
T0450 011:861 JLINK_ReadReg(FPS7)  returns 0x00000000 (0000ms, 1576ms total)
T0450 011:861 JLINK_ReadReg(FPS8)  returns 0x00000000 (0000ms, 1576ms total)
T0450 011:861 JLINK_ReadReg(FPS9)  returns 0x00000000 (0000ms, 1576ms total)
T0450 011:861 JLINK_ReadReg(FPS10)  returns 0x00000000 (0000ms, 1576ms total)
T0450 011:861 JLINK_ReadReg(FPS11)  returns 0x00000000 (0000ms, 1576ms total)
T0450 011:861 JLINK_ReadReg(FPS12)  returns 0x00000000 (0000ms, 1576ms total)
T0450 011:861 JLINK_ReadReg(FPS13)  returns 0x00000000 (0000ms, 1576ms total)
T0450 011:861 JLINK_ReadReg(FPS14)  returns 0x00000000 (0000ms, 1576ms total)
T0450 011:861 JLINK_ReadReg(FPS15)  returns 0x00000000 (0000ms, 1576ms total)
T0450 011:861 JLINK_ReadReg(FPS16)  returns 0x00000000 (0000ms, 1576ms total)
T0450 011:861 JLINK_ReadReg(FPS17)  returns 0x00000000 (0000ms, 1576ms total)
T0450 011:861 JLINK_ReadReg(FPS18)  returns 0x00000000 (0000ms, 1576ms total)
T0450 011:861 JLINK_ReadReg(FPS19)  returns 0x00000000 (0000ms, 1576ms total)
T0450 011:861 JLINK_ReadReg(FPS20)  returns 0x00000000 (0000ms, 1576ms total)
T0450 011:861 JLINK_ReadReg(FPS21)  returns 0x00000000 (0000ms, 1576ms total)
T0450 011:862 JLINK_ReadReg(FPS22)  returns 0x00000000 (0000ms, 1577ms total)
T0450 011:862 JLINK_ReadReg(FPS23)  returns 0x00000000 (0000ms, 1577ms total)
T0450 011:862 JLINK_ReadReg(FPS24)  returns 0x00000000 (0000ms, 1577ms total)
T0450 011:862 JLINK_ReadReg(FPS25)  returns 0x00000000 (0000ms, 1577ms total)
T0450 011:862 JLINK_ReadReg(FPS26)  returns 0x00000000 (0000ms, 1577ms total)
T0450 011:862 JLINK_ReadReg(FPS27)  returns 0x00000000 (0000ms, 1577ms total)
T0450 011:862 JLINK_ReadReg(FPS28)  returns 0x00000000 (0000ms, 1577ms total)
T0450 011:862 JLINK_ReadReg(FPS29)  returns 0x00000000 (0000ms, 1577ms total)
T0450 011:862 JLINK_ReadReg(FPS30)  returns 0x00000000 (0000ms, 1577ms total)
T0450 011:862 JLINK_ReadReg(FPS31)  returns 0x00000000 (0000ms, 1577ms total)
T2E9C 011:862 JLINK_ReadMemU32(0xE0001004, 0x0001 Items, ...) -- CPU_ReadMem(4 bytes @ 0xE0001004) - Data: 30 13 77 05  returns 0x01 (0001ms, 1578ms total)
T2E9C 011:865 JLINK_ReadMem (0x08001C34, 0x003C Bytes, ...) -- Read from flash cache (60 bytes @ 0x08001C34) - Data: FF F7 28 FC FF F7 CC FB FF F7 FA FA FE F7 8A FB ...  returns 0x00 (0000ms, 1578ms total)
T2E9C 017:150 JLINK_ReadMem (0x2000011C, 0x0004 Bytes, ...) -- CPU_ReadMem(64 bytes @ 0x20000100) -- Updating C cache (64 bytes @ 0x20000100) -- Read from C cache (4 bytes @ 0x2000011C) - Data: 00 00 00 00  returns 0x00 (0002ms, 1580ms total)
T2E9C 017:152 JLINK_ReadMem (0x20000120, 0x0004 Bytes, ...) -- Read from C cache (4 bytes @ 0x20000120) - Data: 00 00 00 00  returns 0x00 (0000ms, 1580ms total)
T2E9C 017:152 JLINK_ReadMem (0x20000124, 0x0004 Bytes, ...) -- Read from C cache (4 bytes @ 0x20000124) - Data: 00 00 00 00  returns 0x00 (0000ms, 1580ms total)
T0450 021:131 JLINK_SetBPEx(Addr = 0x0800019C, Type = 0xFFFFFFF2)  returns 0x00000019 (0000ms, 1580ms total)
T0450 021:131 JLINK_SetBPEx(Addr = 0x08001360, Type = 0xFFFFFFF2)  returns 0x0000001A (0000ms, 1580ms total)
T0450 021:131 JLINK_SetBPEx(Addr = 0x08001364, Type = 0xFFFFFFF2)  returns 0x0000001B (0000ms, 1580ms total)
T0450 021:131 JLINK_SetBPEx(Addr = 0x08001368, Type = 0xFFFFFFF2)  returns 0x0000001C (0000ms, 1580ms total)
T0450 021:131 JLINK_SetBPEx(Addr = 0x0800136C, Type = 0xFFFFFFF2)  returns 0x0000001D (0000ms, 1580ms total)
T0450 021:131 JLINK_SetBPEx(Addr = 0x08001370, Type = 0xFFFFFFF2)  returns 0x0000001E (0000ms, 1580ms total)
T0450 021:131 JLINK_SetBPEx(Addr = 0x08001374, Type = 0xFFFFFFF2)  returns 0x0000001F (0000ms, 1580ms total)
T0450 021:131 JLINK_SetBPEx(Addr = 0x080012DE, Type = 0xFFFFFFF2)  returns 0x00000020 (0000ms, 1580ms total)
T0450 021:131 JLINK_SetBPEx(Addr = 0x080012CC, Type = 0xFFFFFFF2)  returns 0x00000021 (0000ms, 1580ms total)
T0450 021:131 JLINK_SetBPEx(Addr = 0x080012E6, Type = 0xFFFFFFF2)  returns 0x00000022 (0000ms, 1580ms total)
T0450 021:131 JLINK_SetBPEx(Addr = 0x080012EA, Type = 0xFFFFFFF2)  returns 0x00000023 (0000ms, 1580ms total)
T0450 021:131 JLINK_Go() -- CPU_ReadMem(4 bytes @ 0xE0001000) -- CPU_WriteMem(4 bytes @ 0xE000201C) (0006ms, 1586ms total)
T0450 021:237 JLINK_IsHalted()  returns TRUE (0005ms, 1591ms total)
T0450 021:242 JLINK_Halt()  returns 0x00 (0000ms, 1586ms total)
T0450 021:242 JLINK_IsHalted()  returns TRUE (0000ms, 1586ms total)
T0450 021:242 JLINK_IsHalted()  returns TRUE (0000ms, 1586ms total)
T0450 021:242 JLINK_IsHalted()  returns TRUE (0000ms, 1586ms total)
T0450 021:242 JLINK_ReadReg(R15 (PC))  returns 0x080012CC (0000ms, 1586ms total)
T0450 021:242 JLINK_ReadReg(XPSR)  returns 0x61000000 (0000ms, 1586ms total)
T0450 021:242 JLINK_ClrBPEx(BPHandle = 0x00000019)  returns 0x00 (0000ms, 1586ms total)
T0450 021:242 JLINK_ClrBPEx(BPHandle = 0x0000001A)  returns 0x00 (0000ms, 1586ms total)
T0450 021:242 JLINK_ClrBPEx(BPHandle = 0x0000001B)  returns 0x00 (0000ms, 1586ms total)
T0450 021:242 JLINK_ClrBPEx(BPHandle = 0x0000001C)  returns 0x00 (0000ms, 1586ms total)
T0450 021:242 JLINK_ClrBPEx(BPHandle = 0x0000001D)  returns 0x00 (0000ms, 1586ms total)
T0450 021:242 JLINK_ClrBPEx(BPHandle = 0x0000001E)  returns 0x00 (0000ms, 1586ms total)
T0450 021:242 JLINK_ClrBPEx(BPHandle = 0x0000001F)  returns 0x00 (0001ms, 1587ms total)
T0450 021:243 JLINK_ClrBPEx(BPHandle = 0x00000020)  returns 0x00 (0000ms, 1587ms total)
T0450 021:243 JLINK_ClrBPEx(BPHandle = 0x00000021)  returns 0x00 (0000ms, 1587ms total)
T0450 021:243 JLINK_ClrBPEx(BPHandle = 0x00000022)  returns 0x00 (0000ms, 1587ms total)
T0450 021:243 JLINK_ClrBPEx(BPHandle = 0x00000023)  returns 0x00 (0000ms, 1587ms total)
T0450 021:243 JLINK_ReadMemU32(0xE000ED30, 0x0001 Items, ...) -- CPU_ReadMem(4 bytes @ 0xE000ED30) - Data: 03 00 00 00  returns 0x01 (0001ms, 1588ms total)
T0450 021:244 JLINK_ReadMemU32(0xE0001028, 0x0001 Items, ...) -- CPU_ReadMem(4 bytes @ 0xE0001028) - Data: 00 00 00 00  returns 0x01 (0002ms, 1590ms total)
T0450 021:246 JLINK_ReadMemU32(0xE0001038, 0x0001 Items, ...) -- CPU_ReadMem(4 bytes @ 0xE0001038) - Data: 00 02 00 00  returns 0x01 (0001ms, 1591ms total)
T0450 021:247 JLINK_ReadMemU32(0xE0001048, 0x0001 Items, ...) -- CPU_ReadMem(4 bytes @ 0xE0001048) - Data: 00 00 00 00  returns 0x01 (0001ms, 1592ms total)
T0450 021:249 JLINK_ReadMemU32(0xE0001058, 0x0001 Items, ...) -- CPU_ReadMem(4 bytes @ 0xE0001058) - Data: 00 00 00 00  returns 0x01 (0001ms, 1593ms total)
T0450 021:250 JLINK_ReadReg(R0)  returns 0x00000000 (0000ms, 1593ms total)
T0450 021:250 JLINK_ReadReg(R1)  returns 0x00000000 (0000ms, 1593ms total)
T0450 021:250 JLINK_ReadReg(R2)  returns 0x00000001 (0000ms, 1593ms total)
T0450 021:250 JLINK_ReadReg(R3)  returns 0x40000000 (0000ms, 1593ms total)
T0450 021:250 JLINK_ReadReg(R4)  returns 0x08001C88 (0000ms, 1593ms total)
T0450 021:250 JLINK_ReadReg(R5)  returns 0x08001C88 (0000ms, 1593ms total)
T0450 021:250 JLINK_ReadReg(R6)  returns 0x00000000 (0000ms, 1593ms total)
T0450 021:250 JLINK_ReadReg(R7)  returns 0x00000000 (0000ms, 1593ms total)
T0450 021:250 JLINK_ReadReg(R8)  returns 0x00000000 (0000ms, 1593ms total)
T0450 021:250 JLINK_ReadReg(R9)  returns 0x00000000 (0000ms, 1593ms total)
T0450 021:250 JLINK_ReadReg(R10)  returns 0x00000000 (0000ms, 1593ms total)
T0450 021:250 JLINK_ReadReg(R11)  returns 0x00000000 (0000ms, 1593ms total)
T0450 021:250 JLINK_ReadReg(R12)  returns 0x40000000 (0001ms, 1594ms total)
T0450 021:251 JLINK_ReadReg(R13 (SP))  returns 0x20000550 (0000ms, 1594ms total)
T0450 021:251 JLINK_ReadReg(R14)  returns 0x080013E3 (0000ms, 1594ms total)
T0450 021:251 JLINK_ReadReg(R15 (PC))  returns 0x080012CC (0000ms, 1594ms total)
T0450 021:251 JLINK_ReadReg(XPSR)  returns 0x61000000 (0000ms, 1594ms total)
T0450 021:251 JLINK_ReadReg(MSP)  returns 0x20000550 (0000ms, 1594ms total)
T0450 021:251 JLINK_ReadReg(PSP)  returns 0x00000000 (0000ms, 1594ms total)
T0450 021:251 JLINK_ReadReg(CFBP)  returns 0x00000000 (0000ms, 1594ms total)
T0450 021:251 JLINK_ReadReg(FPSCR)  returns 0x00000000 (0006ms, 1600ms total)
T0450 021:257 JLINK_ReadReg(FPS0)  returns 0x00000000 (0000ms, 1600ms total)
T0450 021:257 JLINK_ReadReg(FPS1)  returns 0x00000000 (0000ms, 1600ms total)
T0450 021:257 JLINK_ReadReg(FPS2)  returns 0x00000000 (0000ms, 1600ms total)
T0450 021:257 JLINK_ReadReg(FPS3)  returns 0x00000000 (0000ms, 1600ms total)
T0450 021:257 JLINK_ReadReg(FPS4)  returns 0x00000000 (0000ms, 1600ms total)
T0450 021:257 JLINK_ReadReg(FPS5)  returns 0x00000000 (0000ms, 1600ms total)
T0450 021:257 JLINK_ReadReg(FPS6)  returns 0x00000000 (0000ms, 1600ms total)
T0450 021:257 JLINK_ReadReg(FPS7)  returns 0x00000000 (0000ms, 1600ms total)
T0450 021:257 JLINK_ReadReg(FPS8)  returns 0x00000000 (0000ms, 1600ms total)
T0450 021:257 JLINK_ReadReg(FPS9)  returns 0x00000000 (0000ms, 1600ms total)
T0450 021:257 JLINK_ReadReg(FPS10)  returns 0x00000000 (0000ms, 1600ms total)
T0450 021:257 JLINK_ReadReg(FPS11)  returns 0x00000000 (0000ms, 1600ms total)
T0450 021:257 JLINK_ReadReg(FPS12)  returns 0x00000000 (0000ms, 1600ms total)
T0450 021:257 JLINK_ReadReg(FPS13)  returns 0x00000000 (0000ms, 1600ms total)
T0450 021:257 JLINK_ReadReg(FPS14)  returns 0x00000000 (0000ms, 1600ms total)
T0450 021:257 JLINK_ReadReg(FPS15)  returns 0x00000000 (0001ms, 1601ms total)
T0450 021:258 JLINK_ReadReg(FPS16)  returns 0x00000000 (0000ms, 1601ms total)
T0450 021:258 JLINK_ReadReg(FPS17)  returns 0x00000000 (0000ms, 1601ms total)
T0450 021:258 JLINK_ReadReg(FPS18)  returns 0x00000000 (0000ms, 1601ms total)
T0450 021:258 JLINK_ReadReg(FPS19)  returns 0x00000000 (0000ms, 1601ms total)
T0450 021:258 JLINK_ReadReg(FPS20)  returns 0x00000000 (0000ms, 1601ms total)
T0450 021:258 JLINK_ReadReg(FPS21)  returns 0x00000000 (0000ms, 1601ms total)
T0450 021:258 JLINK_ReadReg(FPS22)  returns 0x00000000 (0000ms, 1601ms total)
T0450 021:258 JLINK_ReadReg(FPS23)  returns 0x00000000 (0000ms, 1601ms total)
T0450 021:258 JLINK_ReadReg(FPS24)  returns 0x00000000 (0000ms, 1601ms total)
T0450 021:258 JLINK_ReadReg(FPS25)  returns 0x00000000 (0000ms, 1601ms total)
T0450 021:258 JLINK_ReadReg(FPS26)  returns 0x00000000 (0000ms, 1601ms total)
T0450 021:258 JLINK_ReadReg(FPS27)  returns 0x00000000 (0000ms, 1601ms total)
T0450 021:258 JLINK_ReadReg(FPS28)  returns 0x00000000 (0000ms, 1601ms total)
T0450 021:258 JLINK_ReadReg(FPS29)  returns 0x00000000 (0000ms, 1601ms total)
T0450 021:258 JLINK_ReadReg(FPS30)  returns 0x00000000 (0000ms, 1601ms total)
T0450 021:258 JLINK_ReadReg(FPS31)  returns 0x00000000 (0000ms, 1601ms total)
T2E9C 021:258 JLINK_ReadMem (0x20000554, 0x0004 Bytes, ...) -- CPU_ReadMem(64 bytes @ 0x20000540) -- Updating C cache (64 bytes @ 0x20000540) -- Read from C cache (4 bytes @ 0x20000554) - Data: E3 13 00 08  returns 0x00 (0002ms, 1603ms total)
T2E9C 021:260 JLINK_ReadMem (0x2000055C, 0x0004 Bytes, ...) -- Read from C cache (4 bytes @ 0x2000055C) - Data: 3D 1C 00 08  returns 0x00 (0000ms, 1603ms total)
T2E9C 021:260 JLINK_ReadMem (0x20000558, 0x0004 Bytes, ...) -- Read from C cache (4 bytes @ 0x20000558) - Data: 88 1C 00 08  returns 0x00 (0000ms, 1603ms total)
T2E9C 021:260 JLINK_ReadMem (0x20000550, 0x0001 Bytes, ...) -- Read from C cache (1 bytes @ 0x20000550) - Data: 00  returns 0x00 (0000ms, 1603ms total)
T2E9C 021:262 JLINK_ReadMemU32(0xE0001004, 0x0001 Items, ...) -- CPU_ReadMem(4 bytes @ 0xE0001004) - Data: 49 13 77 05  returns 0x01 (0001ms, 1604ms total)
T2E9C 021:263 JLINK_ReadMem (0x2000011C, 0x0004 Bytes, ...) -- CPU_ReadMem(64 bytes @ 0x20000100) -- Updating C cache (64 bytes @ 0x20000100) -- Read from C cache (4 bytes @ 0x2000011C) - Data: 00 00 00 00  returns 0x00 (0002ms, 1606ms total)
T2E9C 021:265 JLINK_ReadMem (0x20000120, 0x0004 Bytes, ...) -- Read from C cache (4 bytes @ 0x20000120) - Data: 00 00 00 00  returns 0x00 (0000ms, 1606ms total)
T2E9C 021:265 JLINK_ReadMem (0x20000124, 0x0004 Bytes, ...) -- Read from C cache (4 bytes @ 0x20000124) - Data: 00 00 00 00  returns 0x00 (0000ms, 1606ms total)
T2E9C 021:268 JLINK_ReadMem (0x080012C6, 0x0002 Bytes, ...) -- Read from flash cache (2 bytes @ 0x080012C6) - Data: 00 20  returns 0x00 (0000ms, 1606ms total)
T2E9C 021:268 JLINK_ReadMem (0x080012C8, 0x003C Bytes, ...) -- Read from flash cache (60 bytes @ 0x080012C8) - Data: 8D F8 00 00 FF F7 91 FE 01 23 6A 46 75 21 D0 20 ...  returns 0x00 (0000ms, 1606ms total)
T0450 022:293 JLINK_Step() -- Read from flash cache (2 bytes @ 0x080012CC) -- Read from flash cache (2 bytes @ 0x080012CE) -- Simulated  returns 0x00 (0001ms, 1607ms total)
T0450 022:294 JLINK_ReadReg(R15 (PC))  returns 0x08000FF2 (0000ms, 1607ms total)
T0450 022:294 JLINK_ReadReg(XPSR)  returns 0x61000000 (0000ms, 1607ms total)
T0450 022:294 JLINK_SetBPEx(Addr = 0x0800019C, Type = 0xFFFFFFF2)  returns 0x00000024 (0000ms, 1607ms total)
T0450 022:294 JLINK_SetBPEx(Addr = 0x08001360, Type = 0xFFFFFFF2)  returns 0x00000025 (0000ms, 1607ms total)
T0450 022:294 JLINK_SetBPEx(Addr = 0x08001364, Type = 0xFFFFFFF2)  returns 0x00000026 (0000ms, 1607ms total)
T0450 022:294 JLINK_SetBPEx(Addr = 0x08001368, Type = 0xFFFFFFF2)  returns 0x00000027 (0000ms, 1607ms total)
T0450 022:294 JLINK_SetBPEx(Addr = 0x0800136C, Type = 0xFFFFFFF2)  returns 0x00000028 (0000ms, 1607ms total)
T0450 022:294 JLINK_SetBPEx(Addr = 0x08001370, Type = 0xFFFFFFF2)  returns 0x00000029 (0000ms, 1607ms total)
T0450 022:294 JLINK_SetBPEx(Addr = 0x08001374, Type = 0xFFFFFFF2)  returns 0x0000002A (0000ms, 1607ms total)
T0450 022:294 JLINK_SetBPEx(Addr = 0x080012DE, Type = 0xFFFFFFF2)  returns 0x0000002B (0000ms, 1607ms total)
T0450 022:294 JLINK_SetBPEx(Addr = 0x080012CC, Type = 0xFFFFFFF2)  returns 0x0000002C (0001ms, 1608ms total)
T0450 022:295 JLINK_SetBPEx(Addr = 0x080012E6, Type = 0xFFFFFFF2)  returns 0x0000002D (0000ms, 1608ms total)
T0450 022:295 JLINK_SetBPEx(Addr = 0x080012EA, Type = 0xFFFFFFF2)  returns 0x0000002E (0000ms, 1608ms total)
T0450 022:295 JLINK_Go() -- CPU_ReadMem(4 bytes @ 0xE0001000) -- CPU_WriteMem(4 bytes @ 0xE0001004) (0005ms, 1613ms total)
T0450 022:401 JLINK_IsHalted()  returns TRUE (0004ms, 1617ms total)
T0450 022:405 JLINK_Halt()  returns 0x00 (0001ms, 1614ms total)
T0450 022:406 JLINK_IsHalted()  returns TRUE (0000ms, 1614ms total)
T0450 022:406 JLINK_IsHalted()  returns TRUE (0000ms, 1614ms total)
T0450 022:406 JLINK_IsHalted()  returns TRUE (0000ms, 1614ms total)
T0450 022:406 JLINK_ReadReg(R15 (PC))  returns 0x080012DE (0000ms, 1614ms total)
T0450 022:406 JLINK_ReadReg(XPSR)  returns 0x61000000 (0000ms, 1614ms total)
T0450 022:406 JLINK_ClrBPEx(BPHandle = 0x00000024)  returns 0x00 (0000ms, 1614ms total)
T0450 022:406 JLINK_ClrBPEx(BPHandle = 0x00000025)  returns 0x00 (0000ms, 1614ms total)
T0450 022:406 JLINK_ClrBPEx(BPHandle = 0x00000026)  returns 0x00 (0000ms, 1614ms total)
T0450 022:406 JLINK_ClrBPEx(BPHandle = 0x00000027)  returns 0x00 (0000ms, 1614ms total)
T0450 022:406 JLINK_ClrBPEx(BPHandle = 0x00000028)  returns 0x00 (0000ms, 1614ms total)
T0450 022:406 JLINK_ClrBPEx(BPHandle = 0x00000029)  returns 0x00 (0000ms, 1614ms total)
T0450 022:406 JLINK_ClrBPEx(BPHandle = 0x0000002A)  returns 0x00 (0000ms, 1614ms total)
T0450 022:406 JLINK_ClrBPEx(BPHandle = 0x0000002B)  returns 0x00 (0000ms, 1614ms total)
T0450 022:406 JLINK_ClrBPEx(BPHandle = 0x0000002C)  returns 0x00 (0000ms, 1614ms total)
T0450 022:406 JLINK_ClrBPEx(BPHandle = 0x0000002D)  returns 0x00 (0000ms, 1614ms total)
T0450 022:406 JLINK_ClrBPEx(BPHandle = 0x0000002E)  returns 0x00 (0000ms, 1614ms total)
T0450 022:406 JLINK_ReadMemU32(0xE000ED30, 0x0001 Items, ...) -- CPU_ReadMem(4 bytes @ 0xE000ED30) - Data: 03 00 00 00  returns 0x01 (0002ms, 1616ms total)
T0450 022:408 JLINK_ReadMemU32(0xE0001028, 0x0001 Items, ...) -- CPU_ReadMem(4 bytes @ 0xE0001028) - Data: 00 00 00 00  returns 0x01 (0001ms, 1617ms total)
T0450 022:409 JLINK_ReadMemU32(0xE0001038, 0x0001 Items, ...) -- CPU_ReadMem(4 bytes @ 0xE0001038) - Data: 00 02 00 00  returns 0x01 (0001ms, 1618ms total)
T0450 022:410 JLINK_ReadMemU32(0xE0001048, 0x0001 Items, ...) -- CPU_ReadMem(4 bytes @ 0xE0001048) - Data: 00 00 00 00  returns 0x01 (0002ms, 1620ms total)
T0450 022:412 JLINK_ReadMemU32(0xE0001058, 0x0001 Items, ...) -- CPU_ReadMem(4 bytes @ 0xE0001058) - Data: 00 00 00 00  returns 0x01 (0001ms, 1621ms total)
T0450 022:413 JLINK_ReadReg(R0)  returns 0x00000000 (0000ms, 1621ms total)
T0450 022:413 JLINK_ReadReg(R1)  returns 0x00000001 (0000ms, 1621ms total)
T0450 022:413 JLINK_ReadReg(R2)  returns 0xFFFFFFFF (0000ms, 1621ms total)
T0450 022:413 JLINK_ReadReg(R3)  returns 0x00000001 (0000ms, 1621ms total)
T0450 022:413 JLINK_ReadReg(R4)  returns 0x08001C88 (0000ms, 1621ms total)
T0450 022:413 JLINK_ReadReg(R5)  returns 0x08001C88 (0000ms, 1621ms total)
T0450 022:413 JLINK_ReadReg(R6)  returns 0x00000000 (0001ms, 1622ms total)
T0450 022:414 JLINK_ReadReg(R7)  returns 0x00000000 (0000ms, 1622ms total)
T0450 022:414 JLINK_ReadReg(R8)  returns 0x00000000 (0000ms, 1622ms total)
T0450 022:414 JLINK_ReadReg(R9)  returns 0x00000000 (0000ms, 1622ms total)
T0450 022:414 JLINK_ReadReg(R10)  returns 0x00000000 (0000ms, 1622ms total)
T0450 022:414 JLINK_ReadReg(R11)  returns 0x00000000 (0000ms, 1622ms total)
T0450 022:414 JLINK_ReadReg(R12)  returns 0x40000000 (0000ms, 1622ms total)
T0450 022:414 JLINK_ReadReg(R13 (SP))  returns 0x20000550 (0000ms, 1622ms total)
T0450 022:414 JLINK_ReadReg(R14)  returns 0x080010BB (0000ms, 1622ms total)
T0450 022:414 JLINK_ReadReg(R15 (PC))  returns 0x080012DE (0000ms, 1622ms total)
T0450 022:414 JLINK_ReadReg(XPSR)  returns 0x61000000 (0000ms, 1622ms total)
T0450 022:414 JLINK_ReadReg(MSP)  returns 0x20000550 (0000ms, 1622ms total)
T0450 022:414 JLINK_ReadReg(PSP)  returns 0x00000000 (0000ms, 1622ms total)
T0450 022:414 JLINK_ReadReg(CFBP)  returns 0x00000000 (0000ms, 1622ms total)
T0450 022:414 JLINK_ReadReg(FPSCR)  returns 0x00000000 (0006ms, 1628ms total)
T0450 022:420 JLINK_ReadReg(FPS0)  returns 0x00000000 (0000ms, 1628ms total)
T0450 022:420 JLINK_ReadReg(FPS1)  returns 0x00000000 (0001ms, 1629ms total)
T0450 022:421 JLINK_ReadReg(FPS2)  returns 0x00000000 (0000ms, 1629ms total)
T0450 022:421 JLINK_ReadReg(FPS3)  returns 0x00000000 (0000ms, 1629ms total)
T0450 022:421 JLINK_ReadReg(FPS4)  returns 0x00000000 (0000ms, 1629ms total)
T0450 022:421 JLINK_ReadReg(FPS5)  returns 0x00000000 (0000ms, 1629ms total)
T0450 022:421 JLINK_ReadReg(FPS6)  returns 0x00000000 (0000ms, 1629ms total)
T0450 022:421 JLINK_ReadReg(FPS7)  returns 0x00000000 (0000ms, 1629ms total)
T0450 022:421 JLINK_ReadReg(FPS8)  returns 0x00000000 (0000ms, 1629ms total)
T0450 022:421 JLINK_ReadReg(FPS9)  returns 0x00000000 (0000ms, 1629ms total)
T0450 022:421 JLINK_ReadReg(FPS10)  returns 0x00000000 (0000ms, 1629ms total)
T0450 022:421 JLINK_ReadReg(FPS11)  returns 0x00000000 (0000ms, 1629ms total)
T0450 022:421 JLINK_ReadReg(FPS12)  returns 0x00000000 (0000ms, 1629ms total)
T0450 022:421 JLINK_ReadReg(FPS13)  returns 0x00000000 (0000ms, 1629ms total)
T0450 022:421 JLINK_ReadReg(FPS14)  returns 0x00000000 (0000ms, 1629ms total)
T0450 022:421 JLINK_ReadReg(FPS15)  returns 0x00000000 (0000ms, 1629ms total)
T0450 022:421 JLINK_ReadReg(FPS16)  returns 0x00000000 (0000ms, 1629ms total)
T0450 022:421 JLINK_ReadReg(FPS17)  returns 0x00000000 (0000ms, 1629ms total)
T0450 022:421 JLINK_ReadReg(FPS18)  returns 0x00000000 (0000ms, 1629ms total)
T0450 022:421 JLINK_ReadReg(FPS19)  returns 0x00000000 (0000ms, 1629ms total)
T0450 022:421 JLINK_ReadReg(FPS20)  returns 0x00000000 (0000ms, 1629ms total)
T0450 022:421 JLINK_ReadReg(FPS21)  returns 0x00000000 (0000ms, 1629ms total)
T0450 022:422 JLINK_ReadReg(FPS22)  returns 0x00000000 (0000ms, 1630ms total)
T0450 022:422 JLINK_ReadReg(FPS23)  returns 0x00000000 (0000ms, 1630ms total)
T0450 022:422 JLINK_ReadReg(FPS24)  returns 0x00000000 (0000ms, 1630ms total)
T0450 022:422 JLINK_ReadReg(FPS25)  returns 0x00000000 (0000ms, 1630ms total)
T0450 022:422 JLINK_ReadReg(FPS26)  returns 0x00000000 (0000ms, 1630ms total)
T0450 022:422 JLINK_ReadReg(FPS27)  returns 0x00000000 (0000ms, 1630ms total)
T0450 022:422 JLINK_ReadReg(FPS28)  returns 0x00000000 (0000ms, 1630ms total)
T0450 022:422 JLINK_ReadReg(FPS29)  returns 0x00000000 (0000ms, 1630ms total)
T0450 022:422 JLINK_ReadReg(FPS30)  returns 0x00000000 (0000ms, 1630ms total)
T0450 022:422 JLINK_ReadReg(FPS31)  returns 0x00000000 (0000ms, 1630ms total)
